             * c:\users\91809\esim-workspace\2bit_dac\2bit_dac.cir
             Transient Analysis  Thu Sep 29 14:43:03  2022
--------------------------------------------------------------------------------
Index   time                            /d0             /d1             
--------------------------------------------------------------------------------
0	0.000000e+00	0.000000e+00	0.000000e+00	0.000000e+00	
1	1.000000e-14	0.000000e+00	1.800000e-02	1.800000e-02	
2	2.000000e-14	0.000000e+00	3.600000e-02	3.600000e-02	
3	4.000000e-14	0.000000e+00	7.200000e-02	7.200000e-02	
4	8.000000e-14	0.000000e+00	1.440000e-01	1.440000e-01	
5	1.600000e-13	0.000000e+00	2.880000e-01	2.880000e-01	
6	3.200000e-13	0.000000e+00	5.760000e-01	5.760000e-01	
7	6.400000e-13	0.000000e+00	1.152000e+00	1.152000e+00	
8	1.000000e-12	0.000000e+00	1.800000e+00	1.800000e+00	
9	1.064000e-12	0.000000e+00	1.800000e+00	1.800000e+00	
10	1.192000e-12	0.000000e+00	1.800000e+00	1.800000e+00	
11	1.448000e-12	0.000000e+00	1.800000e+00	1.800000e+00	
12	1.960000e-12	0.000000e+00	1.800000e+00	1.800000e+00	
13	2.984000e-12	0.000000e+00	1.800000e+00	1.800000e+00	
14	5.032000e-12	0.000000e+00	1.800000e+00	1.800000e+00	
15	9.128000e-12	0.000000e+00	1.800000e+00	1.800000e+00	
16	1.732000e-11	0.000000e+00	1.800000e+00	1.800000e+00	
17	3.370400e-11	0.000000e+00	1.800000e+00	1.800000e+00	
18	6.647200e-11	0.000000e+00	1.800000e+00	1.800000e+00	
19	1.320080e-10	0.000000e+00	1.800000e+00	1.800000e+00	
20	1.974486e-10	0.000000e+00	1.800000e+00	1.800000e+00	
21	3.151124e-10	0.000000e+00	1.800000e+00	1.800000e+00	
22	4.167413e-10	0.000000e+00	1.800000e+00	1.800000e+00	
23	5.249020e-10	0.000000e+00	1.800000e+00	1.800000e+00	
24	6.615016e-10	0.000000e+00	1.800000e+00	1.800000e+00	
25	8.154104e-10	0.000000e+00	1.800000e+00	1.800000e+00	
26	1.122892e-09	0.000000e+00	1.800000e+00	1.800000e+00	
27	1.515758e-09	0.000000e+00	1.800000e+00	1.800000e+00	
28	2.301489e-09	0.000000e+00	1.800000e+00	1.800000e+00	
29	3.872952e-09	0.000000e+00	1.800000e+00	1.800000e+00	
30	6.834517e-09	0.000000e+00	1.800000e+00	1.800000e+00	
31	1.275765e-08	0.000000e+00	1.800000e+00	1.800000e+00	
32	2.460391e-08	0.000000e+00	1.800000e+00	1.800000e+00	
33	4.829643e-08	0.000000e+00	1.800000e+00	1.800000e+00	
34	9.568148e-08	0.000000e+00	1.800000e+00	1.800000e+00	
35	1.904516e-07	0.000000e+00	1.800000e+00	1.800000e+00	
36	3.799918e-07	0.000000e+00	1.800000e+00	1.800000e+00	
37	7.590721e-07	0.000000e+00	1.800000e+00	1.800000e+00	
38	1.159072e-06	0.000000e+00	1.800000e+00	1.800000e+00	
39	1.559072e-06	0.000000e+00	1.800000e+00	1.800000e+00	
40	1.959072e-06	0.000000e+00	1.800000e+00	1.800000e+00	
41	2.359072e-06	0.000000e+00	1.800000e+00	1.800000e+00	
42	2.759072e-06	0.000000e+00	1.800000e+00	1.800000e+00	
43	3.159072e-06	0.000000e+00	1.800000e+00	1.800000e+00	
44	3.559072e-06	0.000000e+00	1.800000e+00	1.800000e+00	
45	3.959072e-06	0.000000e+00	1.800000e+00	1.800000e+00	
46	4.359072e-06	0.000000e+00	1.800000e+00	1.800000e+00	
47	4.759072e-06	0.000000e+00	1.800000e+00	1.800000e+00	
48	5.000001e-06	0.000000e+00	1.800000e+00	1.800000e+00	
49	5.000001e-06	0.000000e+00	1.620000e+00	1.800000e+00	
50	5.000001e-06	0.000000e+00	1.260000e+00	1.800000e+00	
51	5.000002e-06	0.000000e+00	5.400000e-01	1.800000e+00	
52	5.000002e-06	0.000000e+00	0.000000e+00	1.800000e+00	
53	5.000002e-06	0.000000e+00	0.000000e+00	1.800000e+00	
54	5.000002e-06	0.000000e+00	0.000000e+00	1.800000e+00	

Index   time                            /d0             /d1             
--------------------------------------------------------------------------------
55	5.000003e-06	0.000000e+00	0.000000e+00	1.800000e+00	
56	5.000003e-06	0.000000e+00	0.000000e+00	1.800000e+00	
57	5.000004e-06	0.000000e+00	0.000000e+00	1.800000e+00	
58	5.000007e-06	0.000000e+00	0.000000e+00	1.800000e+00	
59	5.000012e-06	0.000000e+00	0.000000e+00	1.800000e+00	
60	5.000022e-06	0.000000e+00	0.000000e+00	1.800000e+00	
61	5.000043e-06	0.000000e+00	0.000000e+00	1.800000e+00	
62	5.000077e-06	0.000000e+00	0.000000e+00	1.800000e+00	
63	5.000123e-06	0.000000e+00	0.000000e+00	1.800000e+00	
64	5.000166e-06	0.000000e+00	0.000000e+00	1.800000e+00	
65	5.000210e-06	0.000000e+00	0.000000e+00	1.800000e+00	
66	5.000263e-06	0.000000e+00	0.000000e+00	1.800000e+00	
67	5.000322e-06	0.000000e+00	0.000000e+00	1.800000e+00	
68	5.000440e-06	0.000000e+00	0.000000e+00	1.800000e+00	
69	5.000661e-06	0.000000e+00	0.000000e+00	1.800000e+00	
70	5.000945e-06	0.000000e+00	0.000000e+00	1.800000e+00	
71	5.001458e-06	0.000000e+00	0.000000e+00	1.800000e+00	
72	5.002486e-06	0.000000e+00	0.000000e+00	1.800000e+00	
73	5.004540e-06	0.000000e+00	0.000000e+00	1.800000e+00	
74	5.008648e-06	0.000000e+00	0.000000e+00	1.800000e+00	
75	5.016865e-06	0.000000e+00	0.000000e+00	1.800000e+00	
76	5.033299e-06	0.000000e+00	0.000000e+00	1.800000e+00	
77	5.066168e-06	0.000000e+00	0.000000e+00	1.800000e+00	
78	5.131904e-06	0.000000e+00	0.000000e+00	1.800000e+00	
79	5.263377e-06	0.000000e+00	0.000000e+00	1.800000e+00	
80	5.526322e-06	0.000000e+00	0.000000e+00	1.800000e+00	
81	5.926322e-06	0.000000e+00	0.000000e+00	1.800000e+00	
82	6.326322e-06	0.000000e+00	0.000000e+00	1.800000e+00	
83	6.726322e-06	0.000000e+00	0.000000e+00	1.800000e+00	
84	7.126322e-06	0.000000e+00	0.000000e+00	1.800000e+00	
85	7.526322e-06	0.000000e+00	0.000000e+00	1.800000e+00	
86	7.926322e-06	0.000000e+00	0.000000e+00	1.800000e+00	
87	8.326322e-06	0.000000e+00	0.000000e+00	1.800000e+00	
88	8.726322e-06	0.000000e+00	0.000000e+00	1.800000e+00	
89	9.126322e-06	0.000000e+00	0.000000e+00	1.800000e+00	
90	9.526322e-06	0.000000e+00	0.000000e+00	1.800000e+00	
91	9.926322e-06	0.000000e+00	0.000000e+00	1.800000e+00	
92	1.000000e-05	0.000000e+00	0.000000e+00	1.800000e+00	
93	1.000000e-05	0.000000e+00	1.800000e-01	1.800000e+00	
94	1.000000e-05	0.000000e+00	5.400000e-01	1.800000e+00	
95	1.000000e-05	0.000000e+00	1.260000e+00	1.800000e+00	
96	1.000000e-05	0.000000e+00	1.800000e+00	1.800000e+00	
97	1.000000e-05	0.000000e+00	1.800000e+00	1.656000e+00	
98	1.000000e-05	0.000000e+00	1.800000e+00	1.368000e+00	
99	1.000000e-05	0.000000e+00	1.800000e+00	7.920000e-01	
100	1.000000e-05	0.000000e+00	1.800000e+00	0.000000e+00	
101	1.000000e-05	0.000000e+00	1.800000e+00	0.000000e+00	
102	1.000000e-05	0.000000e+00	1.800000e+00	0.000000e+00	
103	1.000000e-05	0.000000e+00	1.800000e+00	0.000000e+00	
104	1.000000e-05	0.000000e+00	1.800000e+00	0.000000e+00	
105	1.000000e-05	0.000000e+00	1.800000e+00	0.000000e+00	
106	1.000001e-05	0.000000e+00	1.800000e+00	0.000000e+00	
107	1.000001e-05	0.000000e+00	1.800000e+00	0.000000e+00	
108	1.000002e-05	0.000000e+00	1.800000e+00	0.000000e+00	
109	1.000003e-05	0.000000e+00	1.800000e+00	0.000000e+00	
110	1.000006e-05	0.000000e+00	1.800000e+00	0.000000e+00	
111	1.000010e-05	0.000000e+00	1.800000e+00	0.000000e+00	
112	1.000014e-05	0.000000e+00	1.800000e+00	0.000000e+00	

Index   time                            /d0             /d1             
--------------------------------------------------------------------------------
113	1.000020e-05	0.000000e+00	1.800000e+00	0.000000e+00	
114	1.000026e-05	0.000000e+00	1.800000e+00	0.000000e+00	
115	1.000034e-05	0.000000e+00	1.800000e+00	0.000000e+00	
116	1.000043e-05	0.000000e+00	1.800000e+00	0.000000e+00	
117	1.000054e-05	0.000000e+00	1.800000e+00	0.000000e+00	
118	1.000069e-05	0.000000e+00	1.800000e+00	0.000000e+00	
119	1.000085e-05	0.000000e+00	1.800000e+00	0.000000e+00	
120	1.000117e-05	0.000000e+00	1.800000e+00	0.000000e+00	
121	1.000180e-05	0.000000e+00	1.800000e+00	0.000000e+00	
122	1.000306e-05	0.000000e+00	1.800000e+00	0.000000e+00	
123	1.000559e-05	0.000000e+00	1.800000e+00	0.000000e+00	
124	1.001064e-05	0.000000e+00	1.800000e+00	0.000000e+00	
125	1.002075e-05	0.000000e+00	1.800000e+00	0.000000e+00	
126	1.004096e-05	0.000000e+00	1.800000e+00	0.000000e+00	
127	1.008139e-05	0.000000e+00	1.800000e+00	0.000000e+00	
128	1.016224e-05	0.000000e+00	1.800000e+00	0.000000e+00	
129	1.032393e-05	0.000000e+00	1.800000e+00	0.000000e+00	
130	1.064733e-05	0.000000e+00	1.800000e+00	0.000000e+00	
131	1.104733e-05	0.000000e+00	1.800000e+00	0.000000e+00	
132	1.144733e-05	0.000000e+00	1.800000e+00	0.000000e+00	
133	1.184733e-05	0.000000e+00	1.800000e+00	0.000000e+00	
134	1.224733e-05	0.000000e+00	1.800000e+00	0.000000e+00	
135	1.264733e-05	0.000000e+00	1.800000e+00	0.000000e+00	
136	1.304733e-05	0.000000e+00	1.800000e+00	0.000000e+00	
137	1.344733e-05	0.000000e+00	1.800000e+00	0.000000e+00	
138	1.384733e-05	0.000000e+00	1.800000e+00	0.000000e+00	
139	1.424733e-05	0.000000e+00	1.800000e+00	0.000000e+00	
140	1.464733e-05	0.000000e+00	1.800000e+00	0.000000e+00	
141	1.500000e-05	0.000000e+00	1.800000e+00	0.000000e+00	
142	1.500000e-05	0.000000e+00	1.620000e+00	0.000000e+00	
143	1.500000e-05	0.000000e+00	1.260000e+00	0.000000e+00	
144	1.500000e-05	0.000000e+00	5.400000e-01	0.000000e+00	
145	1.500000e-05	0.000000e+00	2.618467e-09	0.000000e+00	
146	1.500000e-05	0.000000e+00	0.000000e+00	0.000000e+00	
147	1.500000e-05	0.000000e+00	0.000000e+00	0.000000e+00	
148	1.500000e-05	0.000000e+00	0.000000e+00	0.000000e+00	
149	1.500000e-05	0.000000e+00	0.000000e+00	0.000000e+00	
150	1.500000e-05	0.000000e+00	0.000000e+00	0.000000e+00	
151	1.500001e-05	0.000000e+00	0.000000e+00	0.000000e+00	
152	1.500001e-05	0.000000e+00	0.000000e+00	0.000000e+00	
153	1.500002e-05	0.000000e+00	0.000000e+00	0.000000e+00	
154	1.500004e-05	0.000000e+00	0.000000e+00	0.000000e+00	
155	1.500007e-05	0.000000e+00	0.000000e+00	0.000000e+00	
156	1.500012e-05	0.000000e+00	0.000000e+00	0.000000e+00	
157	1.500016e-05	0.000000e+00	0.000000e+00	0.000000e+00	
158	1.500020e-05	0.000000e+00	0.000000e+00	0.000000e+00	
159	1.500026e-05	0.000000e+00	0.000000e+00	0.000000e+00	
160	1.500032e-05	0.000000e+00	0.000000e+00	0.000000e+00	
161	1.500044e-05	0.000000e+00	0.000000e+00	0.000000e+00	
162	1.500068e-05	0.000000e+00	0.000000e+00	0.000000e+00	
163	1.500115e-05	0.000000e+00	0.000000e+00	0.000000e+00	
164	1.500209e-05	0.000000e+00	0.000000e+00	0.000000e+00	
165	1.500398e-05	0.000000e+00	0.000000e+00	0.000000e+00	
166	1.500776e-05	0.000000e+00	0.000000e+00	0.000000e+00	
167	1.501531e-05	0.000000e+00	0.000000e+00	0.000000e+00	
168	1.503041e-05	0.000000e+00	0.000000e+00	0.000000e+00	
169	1.506060e-05	0.000000e+00	0.000000e+00	0.000000e+00	
170	1.512100e-05	0.000000e+00	0.000000e+00	0.000000e+00	

Index   time                            /d0             /d1             
--------------------------------------------------------------------------------
171	1.524180e-05	0.000000e+00	0.000000e+00	0.000000e+00	
172	1.548339e-05	0.000000e+00	0.000000e+00	0.000000e+00	
173	1.588339e-05	0.000000e+00	0.000000e+00	0.000000e+00	
174	1.628339e-05	0.000000e+00	0.000000e+00	0.000000e+00	
175	1.668339e-05	0.000000e+00	0.000000e+00	0.000000e+00	
176	1.708339e-05	0.000000e+00	0.000000e+00	0.000000e+00	
177	1.748339e-05	0.000000e+00	0.000000e+00	0.000000e+00	
178	1.788339e-05	0.000000e+00	0.000000e+00	0.000000e+00	
179	1.828339e-05	0.000000e+00	0.000000e+00	0.000000e+00	
180	1.868339e-05	0.000000e+00	0.000000e+00	0.000000e+00	
181	1.908339e-05	0.000000e+00	0.000000e+00	0.000000e+00	
182	1.948339e-05	0.000000e+00	0.000000e+00	0.000000e+00	
183	1.988339e-05	0.000000e+00	0.000000e+00	0.000000e+00	
184	2.000000e-05	0.000000e+00	0.000000e+00	0.000000e+00	

             * c:\users\91809\esim-workspace\2bit_dac\2bit_dac.cir
             Transient Analysis  Thu Sep 29 14:43:03  2022
--------------------------------------------------------------------------------
Index   time            /vdd            /vout           m.xswitch1.xm1. 
--------------------------------------------------------------------------------
0	0.000000e+00	3.300000e+00	2.040329e-06	4.158192e-11	
1	1.000000e-14	3.300000e+00	7.213211e-03	9.025081e-03	
2	2.000000e-14	3.300000e+00	1.225565e-02	1.376020e-02	
3	4.000000e-14	3.300000e+00	2.087195e-02	1.852966e-02	
4	8.000000e-14	3.300000e+00	3.551260e-02	1.792688e-02	
5	1.600000e-13	3.300000e+00	6.401897e-02	1.524464e-02	
6	3.200000e-13	3.300000e+00	1.214765e-01	1.098167e-02	
7	6.400000e-13	3.300000e+00	2.299767e-01	9.807212e-03	
8	1.000000e-12	3.300000e+00	3.247853e-01	1.073918e-02	
9	1.064000e-12	3.300000e+00	3.132380e-01	1.264904e-03	
10	1.192000e-12	3.300000e+00	3.057205e-01	-8.42652e-04	
11	1.448000e-12	3.300000e+00	3.038249e-01	9.174517e-04	
12	1.960000e-12	3.300000e+00	2.930479e-01	-6.82750e-04	
13	2.984000e-12	3.300000e+00	2.736146e-01	8.394718e-04	
14	5.032000e-12	3.300000e+00	2.271308e-01	-6.55340e-04	
15	9.128000e-12	3.300000e+00	1.422096e-01	8.052590e-04	
16	1.732000e-11	3.300000e+00	1.550148e-02	-6.74157e-04	
17	3.370400e-11	3.300000e+00	-1.08854e-01	7.590682e-04	
18	6.647200e-11	3.300000e+00	-1.50795e-01	-7.20263e-04	
19	1.320080e-10	3.300000e+00	-1.67363e-01	7.206153e-04	
20	1.974486e-10	3.300000e+00	-1.45106e-01	-7.30938e-04	
21	3.151124e-10	3.300000e+00	1.393201e+00	7.163741e-04	
22	4.167413e-10	3.300000e+00	2.129115e+00	-7.63667e-04	
23	5.249020e-10	3.300000e+00	2.221579e+00	7.150160e-04	
24	6.615016e-10	3.300000e+00	2.438808e+00	-7.18324e-04	
25	8.154104e-10	3.300000e+00	2.449561e+00	7.139105e-04	
26	1.122892e-09	3.300000e+00	2.490340e+00	-7.13009e-04	
27	1.515758e-09	3.300000e+00	2.462258e+00	7.122812e-04	
28	2.301489e-09	3.300000e+00	2.486765e+00	-7.11942e-04	
29	3.872952e-09	3.300000e+00	2.463618e+00	7.117789e-04	
30	6.834517e-09	3.300000e+00	2.486143e+00	-7.11694e-04	
31	1.275765e-08	3.300000e+00	2.463932e+00	7.116528e-04	
32	2.460391e-08	3.300000e+00	2.485990e+00	-7.11632e-04	
33	4.829643e-08	3.300000e+00	2.464008e+00	7.116217e-04	
34	9.568148e-08	3.300000e+00	2.485953e+00	-7.11617e-04	
35	1.904516e-07	3.300000e+00	2.464027e+00	7.116140e-04	
36	3.799918e-07	3.300000e+00	2.485943e+00	-7.11613e-04	
37	7.590721e-07	3.300000e+00	2.464032e+00	7.116120e-04	
38	1.159072e-06	3.300000e+00	2.485940e+00	-7.11611e-04	
39	1.559072e-06	3.300000e+00	2.464034e+00	7.116108e-04	
40	1.959072e-06	3.300000e+00	2.485937e+00	-7.11610e-04	
41	2.359072e-06	3.300000e+00	2.464037e+00	7.116096e-04	
42	2.759072e-06	3.300000e+00	2.485934e+00	-7.11609e-04	
43	3.159072e-06	3.300000e+00	2.464040e+00	7.116084e-04	
44	3.559072e-06	3.300000e+00	2.485931e+00	-7.11608e-04	
45	3.959072e-06	3.300000e+00	2.464043e+00	7.116071e-04	
46	4.359072e-06	3.300000e+00	2.485928e+00	-7.11607e-04	
47	4.759072e-06	3.300000e+00	2.464046e+00	7.116059e-04	
48	5.000001e-06	3.300000e+00	2.485924e+00	-7.11605e-04	
49	5.000001e-06	3.300000e+00	2.488054e+00	-7.17141e-03	
50	5.000001e-06	3.300000e+00	2.496584e+00	-5.19507e-03	
51	5.000002e-06	3.300000e+00	2.517909e+00	-9.43464e-05	
52	5.000002e-06	3.300000e+00	2.528049e+00	-2.57092e-02	
53	5.000002e-06	3.300000e+00	2.525898e+00	-3.04290e-03	
54	5.000002e-06	3.300000e+00	2.520653e+00	2.927490e-03	

Index   time            /vdd            /vout           m.xswitch1.xm1. 
--------------------------------------------------------------------------------
55	5.000003e-06	3.300000e+00	2.511827e+00	-2.01048e-03	
56	5.000003e-06	3.300000e+00	2.496939e+00	2.148068e-03	
57	5.000004e-06	3.300000e+00	2.474084e+00	-1.85971e-03	
58	5.000007e-06	3.300000e+00	2.449568e+00	1.969090e-03	
59	5.000012e-06	3.300000e+00	2.461029e+00	-1.85614e-03	
60	5.000022e-06	3.300000e+00	2.524960e+00	1.913916e-03	
61	5.000043e-06	3.300000e+00	2.651851e+00	-1.86536e-03	
62	5.000077e-06	3.300000e+00	2.783993e+00	1.891683e-03	
63	5.000123e-06	3.300000e+00	2.653727e+00	-1.87257e-03	
64	5.000166e-06	3.300000e+00	2.292710e+00	1.876399e-03	
65	5.000210e-06	3.300000e+00	2.020267e+00	-1.87157e-03	
66	5.000263e-06	3.300000e+00	1.847875e+00	1.870729e-03	
67	5.000322e-06	3.300000e+00	1.742891e+00	-1.86898e-03	
68	5.000440e-06	3.300000e+00	1.668747e+00	1.868267e-03	
69	5.000661e-06	3.300000e+00	1.647185e+00	-1.86786e-03	
70	5.000945e-06	3.300000e+00	1.651277e+00	1.867542e-03	
71	5.001458e-06	3.300000e+00	1.648974e+00	-1.86737e-03	
72	5.002486e-06	3.300000e+00	1.650948e+00	1.867280e-03	
73	5.004540e-06	3.300000e+00	1.649084e+00	-1.86724e-03	
74	5.008648e-06	3.300000e+00	1.650902e+00	1.867215e-03	
75	5.016865e-06	3.300000e+00	1.649106e+00	-1.86720e-03	
76	5.033299e-06	3.300000e+00	1.650891e+00	1.867198e-03	
77	5.066168e-06	3.300000e+00	1.649111e+00	-1.86720e-03	
78	5.131904e-06	3.300000e+00	1.650889e+00	1.867194e-03	
79	5.263377e-06	3.300000e+00	1.649112e+00	-1.86719e-03	
80	5.526322e-06	3.300000e+00	1.650888e+00	1.867193e-03	
81	5.926322e-06	3.300000e+00	1.649112e+00	-1.86719e-03	
82	6.326322e-06	3.300000e+00	1.650888e+00	1.867193e-03	
83	6.726322e-06	3.300000e+00	1.649112e+00	-1.86719e-03	
84	7.126322e-06	3.300000e+00	1.650888e+00	1.867192e-03	
85	7.526322e-06	3.300000e+00	1.649113e+00	-1.86719e-03	
86	7.926322e-06	3.300000e+00	1.650887e+00	1.867192e-03	
87	8.326322e-06	3.300000e+00	1.649113e+00	-1.86719e-03	
88	8.726322e-06	3.300000e+00	1.650887e+00	1.867191e-03	
89	9.126322e-06	3.300000e+00	1.649113e+00	-1.86719e-03	
90	9.526322e-06	3.300000e+00	1.650887e+00	1.867191e-03	
91	9.926322e-06	3.300000e+00	1.649114e+00	-1.86719e-03	
92	1.000000e-05	3.300000e+00	1.650886e+00	1.867189e-03	
93	1.000000e-05	3.300000e+00	1.652332e+00	1.657763e-02	
94	1.000000e-05	3.300000e+00	1.653805e+00	1.173957e-02	
95	1.000000e-05	3.300000e+00	1.656331e+00	9.151458e-03	
96	1.000000e-05	3.300000e+00	1.657930e+00	1.133994e-02	
97	1.000000e-05	3.300000e+00	1.617380e+00	1.097391e-03	
98	1.000000e-05	3.300000e+00	1.552389e+00	-7.66666e-04	
99	1.000000e-05	3.300000e+00	1.429173e+00	8.504301e-04	
100	1.000000e-05	3.300000e+00	1.291894e+00	-6.32175e-04	
101	1.000000e-05	3.300000e+00	1.301326e+00	9.277064e-06	
102	1.000000e-05	3.300000e+00	1.311387e+00	1.488993e-04	
103	1.000000e-05	3.300000e+00	1.328637e+00	3.163542e-05	
104	1.000000e-05	3.300000e+00	1.363294e+00	1.373999e-04	
105	1.000000e-05	3.300000e+00	1.424281e+00	3.351240e-05	
106	1.000001e-05	3.300000e+00	1.528884e+00	1.287620e-04	
107	1.000001e-05	3.300000e+00	1.691259e+00	2.269866e-05	
108	1.000002e-05	3.300000e+00	1.928027e+00	1.060936e-04	
109	1.000003e-05	3.300000e+00	2.109919e+00	-1.62568e-05	
110	1.000006e-05	3.300000e+00	1.727955e+00	6.167057e-05	
111	1.000010e-05	3.300000e+00	3.850702e-01	-5.57453e-05	
112	1.000014e-05	3.300000e+00	5.484401e-02	4.662093e-05	

Index   time            /vdd            /vout           m.xswitch1.xm1. 
--------------------------------------------------------------------------------
113	1.000020e-05	3.300000e+00	2.892278e-02	-5.65010e-05	
114	1.000026e-05	3.300000e+00	6.549979e-02	4.617827e-05	
115	1.000034e-05	3.300000e+00	6.454556e-01	-6.49628e-05	
116	1.000043e-05	3.300000e+00	8.837507e-01	2.631051e-06	
117	1.000054e-05	3.300000e+00	7.934132e-01	-4.17484e-05	
118	1.000069e-05	3.300000e+00	8.452145e-01	3.533670e-05	
119	1.000085e-05	3.300000e+00	8.122935e-01	-3.53516e-05	
120	1.000117e-05	3.300000e+00	8.349493e-01	3.547401e-05	
121	1.000180e-05	3.300000e+00	8.162035e-01	-3.55329e-05	
122	1.000306e-05	3.300000e+00	8.332308e-01	3.556168e-05	
123	1.000559e-05	3.300000e+00	8.170110e-01	-3.55759e-05	
124	1.001064e-05	3.300000e+00	8.328401e-01	3.558290e-05	
125	1.002075e-05	3.300000e+00	8.172036e-01	-3.55864e-05	
126	1.004096e-05	3.300000e+00	8.327447e-01	3.558816e-05	
127	1.008139e-05	3.300000e+00	8.172512e-01	-3.55890e-05	
128	1.016224e-05	3.300000e+00	8.327210e-01	3.558947e-05	
129	1.032393e-05	3.300000e+00	8.172631e-01	-3.55897e-05	
130	1.064733e-05	3.300000e+00	8.327150e-01	3.558980e-05	
131	1.104733e-05	3.300000e+00	8.172665e-01	-3.55899e-05	
132	1.144733e-05	3.300000e+00	8.327122e-01	3.558998e-05	
133	1.184733e-05	3.300000e+00	8.172697e-01	-3.55901e-05	
134	1.224733e-05	3.300000e+00	8.327090e-01	3.559016e-05	
135	1.264733e-05	3.300000e+00	8.172729e-01	-3.55902e-05	
136	1.304733e-05	3.300000e+00	8.327058e-01	3.559033e-05	
137	1.344733e-05	3.300000e+00	8.172761e-01	-3.55904e-05	
138	1.384733e-05	3.300000e+00	8.327026e-01	3.559051e-05	
139	1.424733e-05	3.300000e+00	8.172793e-01	-3.55906e-05	
140	1.464733e-05	3.300000e+00	8.326994e-01	3.559069e-05	
141	1.500000e-05	3.300000e+00	8.172827e-01	-3.55908e-05	
142	1.500000e-05	3.300000e+00	8.159054e-01	-7.58313e-03	
